Using: /usr/bin/time -p /usr/ece/synopsys/hspice_vD-2010.03-SP1/hspice/linux/hspice final.sp
 ****** HSPICE -- D-2010.03-SP1 32-BIT (May 27 2010) linux ******               
  Copyright (C) 2010 Synopsys, Inc. All Rights Reserved.                        
  Unpublished-rights reserved under US copyright laws.
  This program is protected by law and is subject to the 
  terms and conditions of the license agreement from Synopsys.
  Use of this program is your acceptance to be bound by the 
  license agreement. HSPICE is the trademark of Synopsys, Inc.
  Input File: final.sp                                                          
 lic:  
 lic: FLEXlm: v8.5b 
 lic: USER:   esamuels             HOSTNAME: laplace 
 lic: HOSTID: 001b245d5b09         PID:      15752 
 lic: Using FLEXlm license file: 
 lic: 5280@val2 
 lic: Checkout 1 hspice 
 lic: License/Maintenance for hspice will expire on 19-apr-2015/2013.12 
 lic: FLOATING license(s) on SERVER val2 
 lic:   
 Init: read install configuration file: /usr/ece/synopsys/hspice_vD-2010.03-SP1/hspice/meta.cfg
  **warning** (OPamps/OPA2134.LIB:54) dc      may cause confusion with .dc
1****** HSPICE -- D-2010.03-SP1 32-BIT (May 27 2010) linux ******               
 ******  
 

  ******  circuit name directory
 circuit number to circuit name directory
   number circuitname                     definition         multiplier
        0 main circuit
        1 xopamp1.                        opa2134            1.00 
        2 xbuffer.                        opa551             1.00 
 
 **warning** To avoid producing hard-to-solve matrix equations, connect gdcpath from node        0:2                defined in subckt 0               
      
 *****************************************************************
 ******  option summary
 ******
 runlvl  = 3         bypass  = 2         
  Opening plot unit= 15
 file=final.pa0                                                                


 **info** dc convergence failure, 
 resetting dcon option to 1 and retrying

 no convergence with standard algorithm,  trying damped pseudo-transient

  *** initial damped pseudo transient completed. ***
  *** final try started ***
  *** final try succeeded *** 

 **info** This was a difficult operating point.
             You can speed up your simulation by specifying:
             .OPTION CONVERGE=1

1****** HSPICE -- D-2010.03-SP1 32-BIT (May 27 2010) linux ******               
 ******  
 

  ******  operating point information tnom=  25.000 temp=  25.000 *****
 ***** operating point status is all       simulation time is     0.     
    node    =voltage      node    =voltage      node    =voltage

 +0:1       =   0.      0:2       =   0.      0:3       =-714.2351n
 +0:4       =   4.3486u 0:5       =  47.9303u 0:6       =  47.9303u
 +0:7       =  -9.0000  0:8       =   9.0000  0:9       = 189.3387u
 +0:10      =   8.1104  1:6       = -31.2227n 1:7       =  48.0239u
 +1:8       =  48.0239u 1:9       =   0.      1:10      =-718.0544m
 +1:11      =  -8.8001  1:12      =  -8.8001  1:53      =   7.8000 
 +1:54      =  -8.1000  1:90      =   4.6812u 1:91      =  40.0000 
 +1:92      = -40.0000  1:99      =   0.      2:33      =   8.9998 
 +2:34      = 930.7178u 2:35      =   9.0002  2:36      = 930.7175u
 +2:37      = 999.9959m 2:38      = 664.6727m 2:39      = 665.2790m
 +2:40      =   1.9337m 2:41      = 189.3396u 2:42      =   1.4748 
 +2:43      =   1.4756  2:44      =   1.4748  2:45      =   1.9336m
 +2:46      =  -1.5550m 2:47      =  -1.5550m 2:48      =   8.9999 
 +2:49      =  -8.9999  2:50      = 591.5766m 2:51      = 591.5766m
 +2:52      =  -9.0000  2:53      =   9.0000  2:54      = 709.8919m
 +2:55      = 709.8919m 2:56      = 189.3387u 2:57      = -10.5635u
 +2:58      =   9.0000  2:59      =  -9.0000  2:60      =  89.3876u
 +2:61      =  89.3876u 2:62      = 899.9100u 2:63      =-899.9100u
 +2:64      =   8.9379n 2:65      =  47.9307u 2:66      = 189.3387u
 +2:67      = -10.5635u 2:68      = -33.0612u 2:69      =   0.     
 +2:70      =   0.      2:71      =  -7.8000  2:72      = 189.4365u
 +2:73      =  -7.8000  2:74      = 189.3387u 2:75      = 769.1386m
 +2:76      =-664.9003m 2:77      = -10.5635u 2:78      =   3.2756 
 +2:79      =   7.9902  2:80      =   9.0000  2:81      =  -6.0000 
 +2:82      = 302.6325n 2:83      =   2.6337n 2:84      = 664.6700m
 +2:85      = 650.6727m 2:87      = 450.6727m 2:88      =  29.9999 
 +2:89      = -29.9999  2:90      = -14.9999  2:91      =  14.9999 
 +2:92      = 877.9142p 2:93      = 877.8809p 2:94      =  -8.9949 
 +2:95      =   9.0000  2:96      =  -8.0000  2:97      =  -8.0000 
 +2:98      =   8.2859  2:99      =  -8.0000  2:100     =   8.3763m
 +2:101     =   8.3766m 2:102     =  28.9208  2:103     =  28.9150 
 +2:104     =  28.9091  2:105     =  28.7081  2:106     =  28.9209 
 +2:107     =  28.9150  2:108     =  28.9091  2:109     = 148.7526 
 +2:110     =  15.7753  2:111     = 300.0000  2:112     =   8.9945 
 +2:113     =  -8.8218  2:114     =  -8.9999  2:115     = 157.8431 
 +2:116     =  15.6862  2:117     =   1.2892k 2:118     =  15.0000 
 +2:119     = -15.0000  2:120     =  53.9672  2:121     =   6.7753 
 +2:122     =  15.7753  2:123     =  -8.9986  2:124     = 157.8431 
 +2:125     =  15.6862  2:126     =   1.2892k 2:127     =  15.0000 
 +2:128     = -15.0000  2:129     =  53.9672  2:130     = 650.7356m
 +2:131     = -51.2644m 2:132     =   9.0000  2:133     = 610.6727m
 +2:134     =-768.7599m 2:135     = 189.3445u 2:136     = 769.1286m
 +2:137     =-768.7499m 2:138     =-189.3445u 2:139     = -63.7264m
 +2:140     = 189.3445u 2:141     = -63.9158m 2:142     =  64.1051m
 +2:143     = 189.3445u 2:144     =   2.0363  2:145     =  -1.7359 
 +2:146     = 650.7342m 2:147     = -63.7264m 2:148     = 189.3451u
 +2:149     =  64.1051m 2:150     =   1.7300  2:151     = 650.7355m
 +2:152     = -49.2645m 2:153     =  28.1300  2:154     =  28.1300 
 +2:155     =  26.9507  2:156     = -49.2645m 2:157     = 650.7355m
 +2:158     = -49.2645m 2:159     =   7.3237  2:160     =   8.1100 
 +2:161     =   4.1110u 2:162     =-999.9959m 2:163     =   0.     


 ****  voltage sources

 subckt                                    xopamp1    xopamp1    xopamp1   
 element  0:vplus    0:vminus   0:vsweep   1:vb       1:vc       1:ve      
  volts      9.0000     9.0000     0.         0.         1.2000   900.0000m
  current   -9.0583m   -9.0588m    0.      -312.2265f    7.8008p    8.1008p
  power     81.5243m   81.5295m    0.         0.        -9.3609p   -7.2908p

 subckt   xopamp1    xopamp1    xbuffer    xbuffer    xbuffer    xbuffer   
 element  1:vlp      1:vln      2:v63      2:v66      2:v67      2:v70     
  volts     40.0000    40.0000   300.0000   -15.0000    15.0000   -15.0000 
  current  -40.0008p  -40.0008p -284.3138u   61.4814p  131.3150m   61.4814p
  power      1.6000n    1.6000n   85.2942m  922.2213p   -1.9697   922.2213p

 subckt   xbuffer    xbuffer    xbuffer    xbuffer    xbuffer    xbuffer   
 element  2:v71      2:v72      2:v74      2:v75      2:v76      2:v78     
  volts     15.0000   702.0000m    0.         3.0000  -160.0000m    1.8000 
  current  131.3150m  -51.2644n   36.0396p   24.0404p    1.9400u    7.2741p
  power     -1.9697    35.9876n    0.       -72.1211p  310.4029n  -13.0934p

 subckt   xbuffer    xbuffer    xbuffer    xbuffer    xbuffer    xbuffer   
 element  2:v79      2:v80      2:v112     2:v113     2:v114     2:v115    
  volts      2.1000  -714.6500m  700.0000m   27.0000    26.4000   700.0000m
  current    6.9737p   63.9158f  -49.2645n    1.1893p    1.7300p  -49.2645n
  power    -14.6448p   45.6774f   34.4851n  -32.1107p  -45.6726p   34.4851n

 subckt   xbuffer    xbuffer    xopamp1    xbuffer    xbuffer    xbuffer   
 element  2:v116     2:v117     1:vlim     2:v18      2:v21      2:v23     
  volts    890.0000m    1.0000     0.      -200.0000u    1.8000   200.0000m
  current   50.5014n   -4.1110f    4.6812n    0.       799.9957u    2.3907u
  power    -44.9463n    4.1110f    0.         0.        -1.4400m -478.1382n

 subckt   xbuffer    xbuffer    xbuffer    xbuffer   
 element  2:v49      2:v50      2:v51      2:v52     
  volts     15.0000   -15.0000     1.0000     1.1110u
  current    0.         0.        -3.0000p  999.9959f
  power      0.         0.         3.0000p   -1.1110a

     total voltage source power dissipation=   -3.6925        watts



 ***** current sources

 subckt   xopamp1    xbuffer    xbuffer    xbuffer    xbuffer    xbuffer   
 element  1:iss      2:i8       2:i9       2:i10      2:i11      2:i19     
  volts      9.7181  -591.5766m -591.5766m -709.8919m -709.8919m -650.6727m
  current  160.0000u  100.0000u  100.0000u  100.0000u  100.0000u    1.0000m
  power     -1.5549m   59.1577u   59.1577u   70.9892u   70.9892u  650.6727u

 subckt   xbuffer    xbuffer    xbuffer    xbuffer    xbuffer    xbuffer   
 element  2:i20      2:i21      2:i22      2:i25      2:i41      2:i46     
  volts     17.2859    18.0000  -650.7356m -650.7342m  -10.5635u -650.7355m
  current  200.0000n  250.0000u    1.0000m    1.0000m   10.0000p    1.0000m
  power     -3.4572u   -4.5000m  650.7356u  650.7342u  105.6346a  650.7355u

 subckt   xbuffer    xbuffer    xbuffer   
 element  2:i47      2:i48      2:i49     
  volts   -650.7355m  189.3387u    7.3237 
  current    1.0000m   10.0000p   50.0000n
  power    650.7355u   -1.8934f -366.1826n


     total current source power dissipation=  -2.5448m       watts

 **** resistors

 subckt                                                          xopamp1   
 element  0:r1       0:r2       0:r3       0:r4       0:r5       1:r2      
  r value   10.0000k   75.0000k    1.0000k   10.0000k  100.0000u  100.0000k
  v drop     0.      -714.2351n    4.3486u  -43.5816u  435.8162f  -31.2227n
  current    0.        -9.5231p    4.3486n   -4.3582n    4.3582n -312.2265f
  power      0.         6.8018a   18.9107f  189.9358f  1.899e-21  9.749e-21

 subckt   xopamp1    xopamp1    xopamp1    xopamp1    xopamp1    xopamp1   
 element  1:rd1      1:rd2      1:ro1      1:ro2      1:rp       1:rss     
  r value    2.4900k    2.4900k   20.0000    20.0000     7.5000k    1.2500x
  v drop  -199.9116m -199.9188m   93.6243n   48.0239u   18.0000  -718.0544m
  current  -80.2858u  -80.2887u    4.6812n    2.4012u    2.4000m -574.4435n
  power     16.0501u   16.0512u  438.2759a  115.3147p   43.2000m  412.4817n

 subckt   xbuffer    xbuffer    xbuffer    xbuffer    xbuffer    xbuffer   
 element  2:r144     2:r158     2:r3       2:r4       2:r10      2:r11     
  r value   24.0000    24.0000     2.0000     2.0000     1.0000k    1.0000k
  v drop   201.0308m  201.0392m -799.9956u -799.9958u  661.7009p -661.7009p
  current    8.3763m    8.3766m -399.9978u -399.9979u  661.7009f -661.7009f
  power      1.6839m    1.6840m  319.9965n  319.9966n  4.378e-22  4.378e-22

 subckt   xbuffer    xbuffer    xbuffer    xbuffer    xbuffer    xbuffer   
 element  2:r12      2:r13      2:r22      2:r30      2:r31      2:r32     
  r value  100.0000m  100.0000m  100.0000x    1.0000x    1.0000x    1.0000x
  v drop   -93.0718u  -93.0717u  -18.0000     8.9991    -8.9991    89.3786u
  current -930.7178u -930.7175u -180.0000n    8.9991u   -8.9991u   89.3786p
  power     86.6236n   86.6235n    3.2400u   80.9838u   80.9838u    7.9885f

 subckt   xbuffer    xbuffer    xbuffer    xbuffer    xbuffer    xbuffer   
 element  2:r33      2:r34      2:r35      2:r36      2:r37      2:r46     
  r value  100.0000   100.0000   100.0000     1.0000k    1.0000k    3.0000k
  v drop  -899.9100u  899.9100u   -8.9379n   99.9511u   99.9510u   -1.2000 
  current   -8.9991u    8.9991u  -89.3786p   99.9511n   99.9510n -399.9978u
  power      8.0984n    8.0984n  7.989e-19    9.9902p    9.9902p  479.9947u

 subckt   xbuffer    xbuffer    xbuffer    xbuffer    xbuffer    xbuffer   
 element  2:r47      2:r59      2:r60      2:r62      2:r74      2:r75     
  r value    3.0000k    1.8700     1.8700    10.0000k    1.0000x    1.0000g
  v drop    -1.2000    -1.7443m   -1.7443m  299.9988n -664.6727m  -22.4978u
  current -399.9979u -932.7860u -932.7857u   29.9999p -664.6727n  -22.4978f
  power    479.9950u    1.6271u    1.6271u    8.9999a  441.7899n  5.061e-19

 subckt   xbuffer    xbuffer    xbuffer    xbuffer    xbuffer    xbuffer   
 element  2:r76      2:r77      2:r78      2:r79      2:r83      2:r127    
  r value    1.0000g    1.0000g    1.0000g    1.0000g    1.0000g  1.000e+12
  v drop    80.9919u -429.0174p    0.        -2.6337n   89.3876u   29.9999 
  current   80.9919f -4.290e-19    0.        -2.6337a   89.3876f   29.9999p
  power      6.5597a  1.841e-28    0.       6.936e-27    7.9901a  899.9926p

 subckt   xbuffer    xbuffer    xbuffer    xbuffer    xbuffer    xbuffer   
 element  2:r128     2:r129     2:r130     2:r131     2:r132     2:r133    
  r value  1.000e+12  1.000e+12  1.000e+12   10.0000k    1.0000x  1.000e+12
  v drop   -29.9999   877.9142p  877.8809p  -17.9949    -3.0000u -999.9959m
  current  -29.9999p  8.779e-22  8.779e-22   -1.7995m   -3.0000p -999.9959f
  power    899.9926p    0.         0.        32.3815m    8.9999a  999.9918f

 subckt   xbuffer    xbuffer    xbuffer    xbuffer    xbuffer    xbuffer   
 element  2:r136     2:r137     2:r138     2:r139     2:r140     2:r141    
  r value    1.0000x    1.0000x    1.0000x    1.0000x    1.0000x    1.0000x
  v drop    -8.9998  -930.7178u   -8.3763m   -9.0002  -930.7175u   -8.3766m
  current   -8.9998u -930.7178p   -8.3763n   -9.0002u -930.7175p   -8.3766n
  power     80.9966u  866.2356f   70.1621p   81.0034u  866.2350f   70.1680p

 subckt   xbuffer    xbuffer    xbuffer    xbuffer    xbuffer    xbuffer   
 element  2:r142     2:r143     2:r156     2:r157     2:r165     2:r166    
  r value  700.0000m  700.0000m  700.0000m  700.0000m    1.0000x    8.4000x
  v drop     5.8634m    5.8634m    5.8636m    5.8636m -157.7526    -8.9945 
  current    8.3763m    8.3763m    8.3766m    8.3766m -157.7526u   -1.0708u
  power     49.1135u   49.1135u   49.1176u   49.1176u   24.8859m    9.6311u

 subckt   xbuffer    xbuffer    xbuffer    xbuffer    xbuffer    xbuffer   
 element  2:r167     2:r169     2:r172     2:r173     2:r174     2:r175    
  r value  100.0000k    1.0000x    1.0000x    1.0000x   10.0000k  100.0000x
  v drop   -17.9999  -178.1633m  142.1569   142.1569     1.2734k    5.4677m
  current -179.9986u -178.1633n  142.1569u  142.1569u  127.3447m   54.6765p
  power      3.2400m   31.7422n   20.2086m   20.2086m  162.1668   298.9525f

 subckt   xbuffer    xbuffer    xbuffer    xbuffer    xbuffer    xbuffer   
 element  2:r176     2:r177     2:r178     2:r180     2:r181     2:r182    
  r value   10.0000k    1.0000x  100.0000k    1.0000x    1.0000x   10.0000k
  v drop   -38.2810   -15.7753   -17.9986   142.1569   142.1569     1.2734k
  current   -3.8281m  -15.7753u -179.9857u  142.1569u  142.1569u  127.3447m
  power    146.5436m  248.8588u    3.2395m   20.2086m   20.2086m  162.1667 

 subckt   xbuffer    xbuffer    xbuffer    xbuffer    xbuffer    xbuffer   
 element  2:r183     2:r184     2:r185     2:r186     2:r187     2:r188    
  r value   10.0000k  100.0000x    1.0000x    1.0000x    1.0000g    1.0000g
  v drop   -38.2810   -17.8164    51.2644m  -28.7081   -53.9672     1.2892k
  current   -3.8281m -178.1637n   51.2644n  -28.7081u  -53.9672n    1.2892u
  power    146.5436m    3.1742u    2.6280n  824.1542u    2.9125u    1.6621m

 subckt   xbuffer    xbuffer    xbuffer    xbuffer    xbuffer    xbuffer   
 element  2:r189     2:r190     2:r195     2:r196     2:r199     2:r201    
  r value    1.0000g    1.0000g    1.0000g    1.0000x  400.0000k  100.0000k
  v drop   -53.9672     1.2892k -999.9959m  664.6727m   -6.0648u   -2.1018u
  current  -53.9672n    1.2892u -999.9959p  664.6727n  -15.1620p  -21.0180p
  power      2.9125u    1.6621m  999.9918p  441.7899n   91.9548a   44.1755a

 subckt   xbuffer    xbuffer    xbuffer    xbuffer    xbuffer    xbuffer   
 element  2:r302     2:r304     2:r305     2:r308     2:r309     2:r314    
  r value    3.0000     1.0000x    1.0000x    1.0000g    1.0000g    1.0000g
  v drop   961.1648p -450.6727m -610.6727m -664.6700m -664.6700m   -1.0098 
  current  320.3883p -450.6727n -610.6727n -664.6700p -664.6700p   -1.0098n
  power    3.079e-19  203.1059n  372.9212n  441.7862p  441.7862p    1.0198n

 subckt   xbuffer    xbuffer    xbuffer    xbuffer    xbuffer    xbuffer   
 element  2:r315     2:r316     2:r317     2:r318     2:r319     2:r320    
  r value    1.0000g   10.0000m   10.0000m   10.0000    10.0000     2.0000k
  v drop   714.1168m   -9.9793u   -9.9793u  189.3445u -189.3445u  600.7575p
  current  714.1168p -997.9276u -997.9276u   18.9344u  -18.9345u  300.3787f
  power    509.9628p    9.9586n    9.9586n    3.5851n    3.5851n  1.805e-22

 subckt   xbuffer    xbuffer    xbuffer    xbuffer    xbuffer    xbuffer   
 element  2:r321     2:r325     2:r326     2:r327     2:r328     2:r329    
  r value    2.0000g    1.0000g    1.0000g  1.000e+12  1.000e+12  1.000e+12
  v drop  -189.3451u   63.9158m   63.9158m  189.3445u   63.7264m  -64.1051m
  current  -94.6725f   63.9158p   63.9158p  189.3445a   63.7264f  -64.1051f
  power     17.9258a    4.0852p    4.0852p  3.585e-20    4.0611f    4.1095f

 subckt   xbuffer    xbuffer    xbuffer    xbuffer    xbuffer    xbuffer   
 element  2:r330     2:r331     2:r332     2:r333     2:r334     2:r335    
  r value  1.000e+12    1.0000x    1.0000x    1.0000x    1.0000x    1.0000g
  v drop    63.9158m   49.2645m  -28.1300    -2.9193u   49.2645m   49.2645m
  current   63.9158f   49.2645n  -28.1300u   -2.9193p   49.2645n   49.2645p
  power      4.0852f    2.4270n  791.2983u    8.5224a    2.4270n    2.4270p

 subckt   xbuffer    xbuffer    xbuffer    xbuffer    xbuffer    xbuffer   
 element  2:r336     2:r337     2:r339     2:r340     2:r341     2:r342    
  r value  1.000e+12    1.0000g    1.0000g    1.0000g    4.4000k    4.4000k
  v drop    -1.7300  -786.3470m  999.9959m   -4.1110u  1.694e-21    0.     
  current   -1.7300p -786.3470p  999.9959p   -4.1110f  3.850e-25    0.     
  power      2.9930p  618.3416p  999.9918p  1.690e-20    0.         0.     

 subckt   xbuffer    xbuffer   
 element  2:r343     2:r344    
  r value  200.0000   1.000e+12
  v drop     0.         8.1104 
  current    0.         8.1104p
  power      0.        65.7785p


 **** voltage-controlled current sources


 subckt     xopamp1    xopamp1    xbuffer    xbuffer    xbuffer    xbuffer 
 element  1:ga       1:gcm      2:g2       2:g11      2:g14      2:g16     
  v drop   -31.2227n   31.2227n -199.9021u   18.0000    16.9902    28.9208 
  current   -2.8863n   -2.8866n    0.         5.3174m  799.9967u   -8.3763m



 subckt     xbuffer    xbuffer    xbuffer    xbuffer    xbuffer    xbuffer 
 element  2:g17      2:g19      2:g20      2:g21      2:g22      2:g23     
  v drop    28.9209  -189.3445u  189.3445u  189.3451u    8.2309     8.2312 
  current   -8.3766m   18.9344u  -18.9344u -395.0513f  999.9959u  999.9959u



 subckt     xbuffer    xbuffer    xbuffer 
 element  2:g35      2:g36      2:g37     
  v drop   -10.5635u  189.3387u    7.3237 
  current  346.0043p  346.0043p  493.3189p




 **** voltage-controlled voltage sources


 subckt     xopamp1    xbuffer    xbuffer    xbuffer    xbuffer    xbuffer 
 element  1:egnd     2:e53      2:e56      2:e75      2:e2       2:e3      
  volts      0.         8.3763m    8.3766m  664.6700m   -9.0000     9.0000 
  current -579.1247n   -8.3763n   -8.3766n   -1.3293n    5.7556m   -5.7567m



 subckt     xbuffer    xbuffer    xbuffer    xbuffer    xbuffer    xbuffer 
 element  2:e4       2:e5       2:e6       2:e7       2:e10      2:e11     
  volts      0.         9.0000    -9.0000    89.3876u  429.0174p  -80.9919u
  current -320.3883p   -8.9991u    8.9991u  -89.3786p -322.7545p -322.6735p



 subckt     xbuffer    xbuffer    xbuffer    xbuffer    xbuffer    xbuffer 
